
T0A1C 000:083 SEGGER J-Link V4.50j Log File (0000ms, 0082ms total)
T0A1C 000:083 DLL Compiled: Jun 26 2012 09:19:07 (0000ms, 0082ms total)
T0A1C 000:083 Logging started @ 2018-09-28 22:00 (0000ms, 0082ms total)
T0A1C 000:083 JLINK_SetWarnOutHandler(...) (0001ms, 0083ms total)
T0A1C 000:084 JLINK_OpenEx(...)
Firmware: J-Link V9 compiled Sep  1 2016 18:29:50
Hardware: V9.70
S/N: 16718034
Feature(s): RDI, FlashBP, FlashDL, JFlash, GDB  returns O.K. (0041ms, 0124ms total)
T0A1C 000:125 JLINK_SetErrorOutHandler(...) (0000ms, 0124ms total)
T0A1C 000:125 JLINK_ExecCommand("Device = LPC1768", ...)
                JLINK_ExecCommand("map ram 0x10000000 - 0x10007FFF", ...)  returns 0x00 (0000ms, 0000ms total)
                JLINK_AddMirrorAreaEx(Addr = 0x00000000, Size = 0x00000000) (0000ms, 0000ms total)
              Device "LPC1768" selected (512 KB flash, 32 KB RAM).  returns 0x00 (0003ms, 0127ms total)
T0A1C 000:128 JLINK_ExecCommand("ProjectFile = "C:\Users\user\Desktop\Camera fixture\3,新做Iphone\FW\0928第一台烧录\V0101\JLinkSettings.ini"", ...)  returns 0x00 (0001ms, 0128ms total)
T0A1C 000:132 JLINK_ExecCommand("DisableConnectionTimeout", ...)  returns 0x00 (0000ms, 0128ms total)
T0A1C 000:132 JLINK_TIF_Select(JLINKARM_TIF_SWD)  returns 0x00 (0005ms, 0133ms total)
T0A1C 000:137 JLINK_SetSpeed(2000) (0001ms, 0134ms total)
T0A1C 000:138 JLINK_GetHardwareVersion()  returns 0x17AE8 (0000ms, 0134ms total)
T0A1C 000:138 JLINK_GetDLLVersion()  returns 45010 (0000ms, 0134ms total)
T0A1C 000:138 JLINK_GetFirmwareString(...) (0000ms, 0134ms total)
T0A1C 000:146 JLINK_GetDLLVersion()  returns 45010 (0000ms, 0134ms total)
T0A1C 000:146 JLINK_GetCompileDateTime() (0000ms, 0134ms total)
T0A1C 000:148 JLINK_GetFirmwareString(...) (0000ms, 0134ms total)
T0A1C 000:150 JLINK_GetHardwareVersion()  returns 0x17AE8 (0000ms, 0134ms total)
T0A1C 000:159 JLINK_GetId() >0x108 TIF>Found SWD-DP with ID 0x2BA01477 >0x0D TIF> >0x21 TIF> >0x0D TIF> >0x28 TIF> >0x0D TIF> >0x28 TIF> >0x0D TIF> >0x21 TIF> >0x0D TIF> >0x21 TIF> >0x0D TIF> >0x28 TIF> >0x0D TIF> >0x21 TIF> >0x0D TIF> >0x21 TIF> >0x0D TIF> >0x21 TIF> >0x0D TIF> >0x21 TIF> >0x0D TIF> >0x21 TIF> >0x0D TIF> >0x28 TIF> >0x0D TIF> >0x28 TIF> >0x0D TIF> >0x21 TIF> >0x0D TIF> >0x21 TIF> >0x0D TIF> >0x28 TIF> >0x0D TIF> >0x21 TIF> >0x0D TIF> >0x21 TIF> >0x0D TIF> >0x28 TIF> >0x0D TIF>
 >0x21 TIF> >0x0D TIF> >0x21 TIF> >0x0D TIF> >0x28 TIF> >0x0D TIF> >0x28 TIF> >0x0D TIF> >0x28 TIF> >0x0D TIF> >0x21 TIF> >0x0D TIF> >0x21 TIF> >0x0D TIF> >0x28 TIF> >0x0D TIF> >0x28 TIF> >0x0D TIF> >0x28 TIF> >0x0D TIF> >0x21 TIF> >0x0D TIF> >0x21 TIF> >0x0D TIF> >0x21 TIF>TPIU fitted.ETM fitted. >0x0D TIF> >0x28 TIF> >0x0D TIF> >0x21 TIF> >0x0D TIF> >0x21 TIF> >0x0D TIF> >0x28 TIF> >0x0D TIF> >0x21 TIF> >0x0D TIF> >0x21 TIF>FPUnit: 6 code (BP) slots and 2 literal slots >0x0D TIF> >0x28 TIF> >0x0D TIF>
 >0x21 TIF> >0x0D TIF> >0x21 TIF> >0x0D TIF> >0x28 TIF> >0x0D TIF> >0x21 TIF> >0x0D TIF> >0x21 TIF> >0x0D TIF> >0x28 TIF> >0x0D TIF> >0x21 TIF> >0x0D TIF> >0x21 TIF> >0x0D TIF> >0x28 TIF> >0x0D TIF> >0x21 TIF> >0x0D TIF> >0x21 TIF>Found Cortex-M3 r2p0, Little endian. >0x0D TIF> >0x21 TIF>  returns 0x2BA01477 (0115ms, 0249ms total)
T0A1C 000:275 JLINK_GetDebugInfo(0x100) -- Value=0xE00FF003  returns 0x00 (0000ms, 0250ms total)
T0A1C 000:276 JLINK_ReadMem (0xE00FFFF0, 0x0010 Bytes, ...) -- CPU is running -- CPU_ReadMem(16 bytes @ 0xE00FFFF0) -- Data:  0D 00 00 00 10 00 00 00 05 00 00 00 B1 00 00 00  returns 0x00 (0001ms, 0251ms total)
T0A1C 000:277 JLINK_ReadMem (0xE00FFFD0, 0x0020 Bytes, ...) -- CPU is running -- CPU_ReadMem(32 bytes @ 0xE00FFFD0) -- Data:  00 00 00 00 00 00 00 00 00 00 00 00 00 00 00 00 ...  returns 0x00 (0001ms, 0252ms total)
T0A1C 000:278 JLINK_ReadMem (0xE00FF000, 0x0018 Bytes, ...) -- CPU is running -- CPU_ReadMem(24 bytes @ 0xE00FF000) -- Data:  03 F0 F0 FF 03 20 F0 FF 03 30 F0 FF 03 10 F0 FF ...  returns 0x00 (0001ms, 0253ms total)
T0A1C 000:279 JLINK_ReadMemU32(0xE000ED00, 0x0001 Items, ...) -- CPU is running -- CPU_ReadMem(4 bytes @ 0xE000ED00) -- Data:  30 C2 2F 41  returns 0x01 (0001ms, 0254ms total)
T0A1C 000:280 JLINK_SetResetType(JLINKARM_RESET_TYPE_NORMAL)  returns ??? (0000ms, 0254ms total)
T0A1C 000:280 JLINK_Reset() -- CPU is running -- CPU_WriteMem(4 bytes @ 0xE000EDF0) -- CPU is running -- CPU_WriteMem(4 bytes @ 0xE000EDFC) >0x35 TIF> -- CPU is running -- CPU_WriteMem(4 bytes @ 0xE000ED0C) -- CPU is running -- CPU_ReadMem(4 bytes @ 0xE000EDF0) -- CPU is running -- CPU_ReadMem(4 bytes @ 0xE000EDF0) -- CPU is running -- CPU_WriteMem(4 bytes @ 0xE000EDF0) -- CPU is running -- CPU_WriteMem(4 bytes @ 0xE000EDFC) -- CPU is running -- CPU_ReadMem(4 bytes @ 0xE000EDF0)
 -- CPU_WriteMem(4 bytes @ 0xE000EDFC) -- CPU_WriteMem(4 bytes @ 0xE000EDFC) -- CPU_WriteMem(4 bytes @ 0xE000EDFC) -- CPU_WriteMem(4 bytes @ 0xE000EDFC) -- CPU_WriteMem(4 bytes @ 0xE000EDFC) -- CPU_WriteMem(4 bytes @ 0xE0001050) -- CPU_WriteMem(4 bytes @ 0xE0001054) -- CPU_WriteMem(4 bytes @ 0xE0001058) -- CPU_WriteMem(4 bytes @ 0xE000EDFC) -- CPU_WriteMem(4 bytes @ 0xE0001058) -- CPU_ReadMem(4 bytes @ 0x00000004) -- CPU_ReadMem(4 bytes @ 0xE0002000) -- CPU_ReadMem(4 bytes @ 0xE0002008)
 -- CPU_ReadMem(4 bytes @ 0xE000200C) -- CPU_ReadMem(4 bytes @ 0xE0002010) -- CPU_ReadMem(4 bytes @ 0xE0002014) -- CPU_ReadMem(4 bytes @ 0xE0002018) -- CPU_ReadMem(4 bytes @ 0xE000201C) -- CPU_WriteMem(4 bytes @ 0xE0002000) -- CPU_WriteMem(4 bytes @ 0xE0002008) -- CPU_WriteMem(4 bytes @ 0xE000200C) -- CPU_WriteMem(4 bytes @ 0xE0002010) -- CPU_WriteMem(4 bytes @ 0xE0002014) -- CPU_WriteMem(4 bytes @ 0xE0002018) -- CPU_WriteMem(4 bytes @ 0xE000201C)
                JLINK_ReadMemHW(0x400FC040, 0x0004 Bytes, ...) -- CPU_ReadMem(4 bytes @ 0x400FC040) -- Data:  01 00 00 00  returns 0x00 (0001ms, 0001ms total)
               -- MA0 is in flash -- Unmirror addr 0x00000258 -- CPU_WriteMem(4 bytes @ 0xE0002000) -- CPU_WriteMem(4 bytes @ 0xE0002008) -- CPU_WriteMem(4 bytes @ 0xE000200C) -- CPU_WriteMem(4 bytes @ 0xE0002010) -- CPU_WriteMem(4 bytes @ 0xE0002014) -- CPU_WriteMem(4 bytes @ 0xE0002018) -- CPU_WriteMem(4 bytes @ 0xE000201C) -- CPU_WriteMem(4 bytes @ 0xE0002000) (0267ms, 0521ms total)
T0A1C 000:547 JLINK_Halt()  returns 0x00 (0000ms, 0521ms total)
T0A1C 000:547 JLINK_IsHalted() -- Unmirror addr 0x00000258  returns TRUE (0000ms, 0521ms total)
T0A1C 000:547 JLINK_ReadMemU32(0xE000EDF0, 0x0001 Items, ...) -- CPU_ReadMem(4 bytes @ 0xE000EDF0) -- Data:  03 00 03 00  returns 0x01 (0001ms, 0522ms total)
T0A1C 000:548 JLINK_WriteU32(0xE000EDF0, 0xA05F0003) -- CPU_WriteMem(4 bytes @ 0xE000EDF0) -- Invalidate MA0 status  returns 0x00 (0001ms, 0523ms total)
T0A1C 000:549 JLINK_WriteU32(0xE000EDFC, 0x01000000) -- CPU_WriteMem(4 bytes @ 0xE000EDFC)  returns 0x00 (0001ms, 0524ms total)
T0A1C 000:560 JLINK_GetHWStatus(...)  returns 0x00 (0001ms, 0525ms total)
T0A1C 000:568 JLINK_GetNumBPUnits(Type = 0xFFFFFF00)  returns 0x06 (0000ms, 0525ms total)
T0A1C 000:568 JLINK_GetNumBPUnits(Type = 0xF0)  returns 0x2000 (0000ms, 0525ms total)
T0A1C 000:568 JLINK_GetNumWPUnits()  returns 0x04 (0000ms, 0525ms total)
T0A1C 000:572 JLINK_GetSpeed()  returns 0x7D0 (0000ms, 0525ms total)
T0A1C 000:574 JLINK_ReadMemU32(0xE000E004, 0x0001 Items, ...) -- CPU_ReadMem(4 bytes @ 0xE000E004) -- Data:  01 00 00 00  returns 0x01 (0002ms, 0527ms total)
T0A1C 000:576 JLINK_ReadMemU32(0xE000E004, 0x0001 Items, ...) -- CPU_ReadMem(4 bytes @ 0xE000E004) -- Data:  01 00 00 00  returns 0x01 (0001ms, 0528ms total)
T0A1C 000:577 JLINK_WriteMem(0xE0001000, 0x001C Bytes, ...) -- Data:  01 00 00 00 00 00 00 00 00 00 00 00 00 00 00 00 ... -- CPU_WriteMem(28 bytes @ 0xE0001000)  returns 0x1C (0001ms, 0529ms total)
T0A1C 000:578 JLINK_ReadMem (0xE0001000, 0x001C Bytes, ...) -- CPU_ReadMem(28 bytes @ 0xE0001000) -- Data:  01 00 00 40 00 00 00 00 00 00 00 00 00 00 00 00 ...  returns 0x00 (0001ms, 0530ms total)
T0A1C 000:579 JLINK_Halt()  returns 0x00 (0000ms, 0530ms total)
T0A1C 000:579 JLINK_IsHalted()
                JLINK_ReadMemHW(0x400FC040, 0x0004 Bytes, ...) -- CPU_ReadMem(4 bytes @ 0x400FC040) -- Data:  01 00 00 00  returns 0x00 (0001ms, 0001ms total)
               -- MA0 is in flash -- Unmirror addr 0x00000258  returns TRUE (0001ms, 0531ms total)
T0A1C 000:583 JLINK_WriteMem(0x10000000, 0x01D8 Bytes, ...) -- Data:  00 BE 0A E0 0D 78 2D 06 68 40 08 24 40 00 00 D3 ... -- CPU_WriteMem(472 bytes @ 0x10000000)  returns 0x1D8 (0003ms, 0533ms total)
T0A1C 000:586 JLINK_WriteReg(R0, 0x00000000)  returns 0x00 (0000ms, 0533ms total)
T0A1C 000:586 JLINK_WriteReg(R1, 0x00B71B00)  returns 0x00 (0001ms, 0534ms total)
T0A1C 000:587 JLINK_WriteReg(R2, 0x00000001)  returns 0x00 (0000ms, 0534ms total)
T0A1C 000:587 JLINK_WriteReg(R3, 0x00000000)  returns 0x00 (0000ms, 0534ms total)
T0A1C 000:587 JLINK_WriteReg(R4, 0x00000000)  returns 0x00 (0000ms, 0534ms total)
T0A1C 000:587 JLINK_WriteReg(R5, 0x00000000)  returns 0x00 (0000ms, 0534ms total)
T0A1C 000:587 JLINK_WriteReg(R6, 0x00000000)  returns 0x00 (0000ms, 0534ms total)
T0A1C 000:587 JLINK_WriteReg(R7, 0x00000000)  returns 0x00 (0000ms, 0534ms total)
T0A1C 000:587 JLINK_WriteReg(R8, 0x00000000)  returns 0x00 (0000ms, 0534ms total)
T0A1C 000:587 JLINK_WriteReg(R9, 0x100001D0)  returns 0x00 (0000ms, 0534ms total)
T0A1C 000:587 JLINK_WriteReg(R10, 0x00000000)  returns 0x00 (0000ms, 0534ms total)
T0A1C 000:587 JLINK_WriteReg(R11, 0x00000000)  returns 0x00 (0000ms, 0534ms total)
T0A1C 000:587 JLINK_WriteReg(R12, 0x00000000)  returns 0x00 (0000ms, 0534ms total)
T0A1C 000:587 JLINK_WriteReg(R13, 0x10000800)  returns 0x00 (0000ms, 0534ms total)
T0A1C 000:587 JLINK_WriteReg(R14, 0x10000001)  returns 0x00 (0000ms, 0534ms total)
T0A1C 000:587 JLINK_WriteReg(R15, 0x10000044)  returns 0x00 (0000ms, 0534ms total)
T0A1C 000:587 JLINK_WriteReg(XPSR, 0x01000000)  returns 0x00 (0000ms, 0534ms total)
T0A1C 000:587 JLINK_WriteReg(MSP, 0x10000800)  returns 0x00 (0000ms, 0534ms total)
T0A1C 000:587 JLINK_WriteReg(PSP, 0x10000800)  returns 0x00 (0000ms, 0534ms total)
T0A1C 000:587 JLINK_WriteReg(CFBP, 0x00000000)  returns 0x00 (0000ms, 0534ms total)
T0A1C 000:587 JLINK_SetBPEx(Addr = 0x10000000, Type = 0xFFFFFFF2)  returns 0x00000001 (0000ms, 0534ms total)
T0A1C 000:587 JLINK_Go() -- CPU_WriteMem(4 bytes @ 0xE0002008) -- CPU_WriteMem(4 bytes @ 0xE000200C) -- CPU_WriteMem(4 bytes @ 0xE0002010) -- CPU_WriteMem(4 bytes @ 0xE0002014) -- CPU_WriteMem(4 bytes @ 0xE0002018) -- CPU_WriteMem(4 bytes @ 0xE000201C) -- Invalidate MA0 status (0009ms, 0543ms total)
T0A1C 000:596 JLINK_IsHalted()  returns TRUE (0004ms, 0547ms total)
T0A1C 000:600 JLINK_ReadReg(R15)  returns 0x10000000 (0000ms, 0543ms total)
T0A1C 000:600 JLINK_ClrBPEx(BPHandle = 0x00000001)  returns 0x00 (0000ms, 0543ms total)
T0A1C 000:600 JLINK_ReadReg(R0)  returns 0x00000000 (0000ms, 0543ms total)
T0A1C 000:601 JLINK_WriteReg(R0, 0x00000000)  returns 0x00 (0000ms, 0543ms total)
T0A1C 000:601 JLINK_WriteReg(R1, 0x00B71B00)  returns 0x00 (0000ms, 0543ms total)
T0A1C 000:601 JLINK_WriteReg(R2, 0x00000001)  returns 0x00 (0000ms, 0543ms total)
T0A1C 000:601 JLINK_WriteReg(R3, 0x00000000)  returns 0x00 (0000ms, 0543ms total)
T0A1C 000:601 JLINK_WriteReg(R4, 0x00000000)  returns 0x00 (0000ms, 0543ms total)
T0A1C 000:601 JLINK_WriteReg(R5, 0x00000000)  returns 0x00 (0000ms, 0543ms total)
T0A1C 000:601 JLINK_WriteReg(R6, 0x00000000)  returns 0x00 (0000ms, 0543ms total)
T0A1C 000:601 JLINK_WriteReg(R7, 0x00000000)  returns 0x00 (0000ms, 0543ms total)
T0A1C 000:601 JLINK_WriteReg(R8, 0x00000000)  returns 0x00 (0000ms, 0543ms total)
T0A1C 000:601 JLINK_WriteReg(R9, 0x100001D0)  returns 0x00 (0000ms, 0543ms total)
T0A1C 000:601 JLINK_WriteReg(R10, 0x00000000)  returns 0x00 (0000ms, 0543ms total)
T0A1C 000:601 JLINK_WriteReg(R11, 0x00000000)  returns 0x00 (0000ms, 0543ms total)
T0A1C 000:601 JLINK_WriteReg(R12, 0x00000000)  returns 0x00 (0000ms, 0543ms total)
T0A1C 000:601 JLINK_WriteReg(R13, 0x10000800)  returns 0x00 (0000ms, 0543ms total)
T0A1C 000:601 JLINK_WriteReg(R14, 0x10000001)  returns 0x00 (0000ms, 0543ms total)
T0A1C 000:601 JLINK_WriteReg(R15, 0x100000A8)  returns 0x00 (0001ms, 0544ms total)
T0A1C 000:602 JLINK_WriteReg(XPSR, 0x01000000)  returns 0x00 (0000ms, 0544ms total)
T0A1C 000:602 JLINK_WriteReg(MSP, 0x10000800)  returns 0x00 (0000ms, 0544ms total)
T0A1C 000:602 JLINK_WriteReg(PSP, 0x10000800)  returns 0x00 (0000ms, 0544ms total)
T0A1C 000:602 JLINK_WriteReg(CFBP, 0x00000000)  returns 0x00 (0000ms, 0544ms total)
T0A1C 000:602 JLINK_SetBPEx(Addr = 0x10000000, Type = 0xFFFFFFF2)  returns 0x00000002 (0000ms, 0544ms total)
T0A1C 000:602 JLINK_Go() -- CPU_WriteMem(4 bytes @ 0xE0002008) -- CPU_WriteMem(4 bytes @ 0xE000200C) -- CPU_WriteMem(4 bytes @ 0xE0002010) -- CPU_WriteMem(4 bytes @ 0xE0002014) -- CPU_WriteMem(4 bytes @ 0xE0002018) -- CPU_WriteMem(4 bytes @ 0xE000201C) (0008ms, 0552ms total)
T0A1C 000:610 JLINK_IsHalted()  returns FALSE (0001ms, 0553ms total)
T0A1C 000:661 JLINK_IsHalted()  returns FALSE (0001ms, 0553ms total)
T0A1C 000:712 JLINK_IsHalted()  returns FALSE (0001ms, 0553ms total)
T0A1C 000:763 JLINK_IsHalted()  returns TRUE (0004ms, 0556ms total)
T0A1C 000:767 JLINK_ReadReg(R15)  returns 0x10000000 (0000ms, 0552ms total)
T0A1C 000:767 JLINK_ClrBPEx(BPHandle = 0x00000002)  returns 0x00 (0000ms, 0552ms total)
T0A1C 000:767 JLINK_ReadReg(R0)  returns 0x00000000 (0000ms, 0552ms total)
T0A1C 000:817 JLINK_WriteReg(R0, 0x00000001)  returns 0x00 (0000ms, 0552ms total)
T0A1C 000:817 JLINK_WriteReg(R1, 0x00B71B00)  returns 0x00 (0000ms, 0552ms total)
T0A1C 000:817 JLINK_WriteReg(R2, 0x00000001)  returns 0x00 (0000ms, 0552ms total)
T0A1C 000:817 JLINK_WriteReg(R3, 0x00000000)  returns 0x00 (0000ms, 0552ms total)
T0A1C 000:817 JLINK_WriteReg(R4, 0x00000000)  returns 0x00 (0000ms, 0552ms total)
T0A1C 000:817 JLINK_WriteReg(R5, 0x00000000)  returns 0x00 (0000ms, 0552ms total)
T0A1C 000:817 JLINK_WriteReg(R6, 0x00000000)  returns 0x00 (0000ms, 0552ms total)
T0A1C 000:817 JLINK_WriteReg(R7, 0x00000000)  returns 0x00 (0000ms, 0552ms total)
T0A1C 000:817 JLINK_WriteReg(R8, 0x00000000)  returns 0x00 (0000ms, 0552ms total)
T0A1C 000:817 JLINK_WriteReg(R9, 0x100001D0)  returns 0x00 (0000ms, 0552ms total)
T0A1C 000:817 JLINK_WriteReg(R10, 0x00000000)  returns 0x00 (0000ms, 0552ms total)
T0A1C 000:817 JLINK_WriteReg(R11, 0x00000000)  returns 0x00 (0000ms, 0552ms total)
T0A1C 000:817 JLINK_WriteReg(R12, 0x00000000)  returns 0x00 (0000ms, 0552ms total)
T0A1C 000:817 JLINK_WriteReg(R13, 0x10000800)  returns 0x00 (0000ms, 0552ms total)
T0A1C 000:817 JLINK_WriteReg(R14, 0x10000001)  returns 0x00 (0000ms, 0552ms total)
T0A1C 000:817 JLINK_WriteReg(R15, 0x100000A4)  returns 0x00 (0000ms, 0552ms total)
T0A1C 000:817 JLINK_WriteReg(XPSR, 0x01000000)  returns 0x00 (0001ms, 0553ms total)
T0A1C 000:818 JLINK_WriteReg(MSP, 0x10000800)  returns 0x00 (0000ms, 0553ms total)
T0A1C 000:818 JLINK_WriteReg(PSP, 0x10000800)  returns 0x00 (0000ms, 0553ms total)
T0A1C 000:818 JLINK_WriteReg(CFBP, 0x00000000)  returns 0x00 (0000ms, 0553ms total)
T0A1C 000:818 JLINK_SetBPEx(Addr = 0x10000000, Type = 0xFFFFFFF2)  returns 0x00000003 (0000ms, 0553ms total)
T0A1C 000:818 JLINK_Go() -- CPU_WriteMem(4 bytes @ 0xE0002008) -- CPU_WriteMem(4 bytes @ 0xE000200C) -- CPU_WriteMem(4 bytes @ 0xE0002010) -- CPU_WriteMem(4 bytes @ 0xE0002014) -- CPU_WriteMem(4 bytes @ 0xE0002018) -- CPU_WriteMem(4 bytes @ 0xE000201C) (0009ms, 0562ms total)
T0A1C 000:827 JLINK_IsHalted()  returns TRUE (0004ms, 0566ms total)
T0A1C 000:831 JLINK_ReadReg(R15)  returns 0x10000000 (0000ms, 0562ms total)
T0A1C 000:831 JLINK_ClrBPEx(BPHandle = 0x00000003)  returns 0x00 (0000ms, 0562ms total)
T0A1C 000:831 JLINK_ReadReg(R0)  returns 0x00000000 (0000ms, 0562ms total)
T0A1C 000:835 JLINK_WriteMem(0x10000000, 0x01D8 Bytes, ...) -- Data:  00 BE 0A E0 0D 78 2D 06 68 40 08 24 40 00 00 D3 ... -- CPU_WriteMem(472 bytes @ 0x10000000)  returns 0x1D8 (0004ms, 0566ms total)
T0A1C 000:839 JLINK_WriteReg(R0, 0x00000000)  returns 0x00 (0000ms, 0566ms total)
T0A1C 000:839 JLINK_WriteReg(R1, 0x00B71B00)  returns 0x00 (0000ms, 0566ms total)
T0A1C 000:839 JLINK_WriteReg(R2, 0x00000002)  returns 0x00 (0000ms, 0566ms total)
T0A1C 000:839 JLINK_WriteReg(R3, 0x00000000)  returns 0x00 (0000ms, 0566ms total)
T0A1C 000:839 JLINK_WriteReg(R4, 0x00000000)  returns 0x00 (0000ms, 0566ms total)
T0A1C 000:839 JLINK_WriteReg(R5, 0x00000000)  returns 0x00 (0000ms, 0566ms total)
T0A1C 000:839 JLINK_WriteReg(R6, 0x00000000)  returns 0x00 (0000ms, 0566ms total)
T0A1C 000:839 JLINK_WriteReg(R7, 0x00000000)  returns 0x00 (0000ms, 0566ms total)
T0A1C 000:839 JLINK_WriteReg(R8, 0x00000000)  returns 0x00 (0000ms, 0566ms total)
T0A1C 000:839 JLINK_WriteReg(R9, 0x100001D0)  returns 0x00 (0001ms, 0567ms total)
T0A1C 000:840 JLINK_WriteReg(R10, 0x00000000)  returns 0x00 (0000ms, 0567ms total)
T0A1C 000:840 JLINK_WriteReg(R11, 0x00000000)  returns 0x00 (0000ms, 0567ms total)
T0A1C 000:840 JLINK_WriteReg(R12, 0x00000000)  returns 0x00 (0000ms, 0567ms total)
T0A1C 000:840 JLINK_WriteReg(R13, 0x10000800)  returns 0x00 (0000ms, 0567ms total)
T0A1C 000:840 JLINK_WriteReg(R14, 0x10000001)  returns 0x00 (0000ms, 0567ms total)
T0A1C 000:840 JLINK_WriteReg(R15, 0x10000044)  returns 0x00 (0000ms, 0567ms total)
T0A1C 000:840 JLINK_WriteReg(XPSR, 0x01000000)  returns 0x00 (0000ms, 0567ms total)
T0A1C 000:840 JLINK_WriteReg(MSP, 0x10000800)  returns 0x00 (0000ms, 0567ms total)
T0A1C 000:840 JLINK_WriteReg(PSP, 0x10000800)  returns 0x00 (0000ms, 0567ms total)
T0A1C 000:840 JLINK_WriteReg(CFBP, 0x00000000)  returns 0x00 (0000ms, 0567ms total)
T0A1C 000:840 JLINK_SetBPEx(Addr = 0x10000000, Type = 0xFFFFFFF2)  returns 0x00000004 (0000ms, 0567ms total)
T0A1C 000:840 JLINK_Go() -- CPU_WriteMem(4 bytes @ 0xE0002008) -- CPU_WriteMem(4 bytes @ 0xE000200C) -- CPU_WriteMem(4 bytes @ 0xE0002010) -- CPU_WriteMem(4 bytes @ 0xE0002014) -- CPU_WriteMem(4 bytes @ 0xE0002018) -- CPU_WriteMem(4 bytes @ 0xE000201C) (0008ms, 0575ms total)
T0A1C 000:848 JLINK_IsHalted()  returns TRUE (0004ms, 0579ms total)
T0A1C 000:852 JLINK_ReadReg(R15)  returns 0x10000000 (0000ms, 0575ms total)
T0A1C 000:852 JLINK_ClrBPEx(BPHandle = 0x00000004)  returns 0x00 (0000ms, 0575ms total)
T0A1C 000:852 JLINK_ReadReg(R0)  returns 0x00000000 (0000ms, 0575ms total)
T0A1C 000:853 JLINK_WriteMem(0x100001F8, 0x0400 Bytes, ...) -- Data:  D8 04 00 10 59 02 00 00 61 02 00 00 63 02 00 00 ... -- CPU_WriteMem(1024 bytes @ 0x100001F8)  returns 0x400 (0007ms, 0582ms total)
T0A1C 000:860 JLINK_WriteReg(R0, 0x00000000)  returns 0x00 (0000ms, 0582ms total)
T0A1C 000:860 JLINK_WriteReg(R1, 0x00000400)  returns 0x00 (0000ms, 0582ms total)
T0A1C 000:860 JLINK_WriteReg(R2, 0x100001F8)  returns 0x00 (0000ms, 0582ms total)
T0A1C 000:860 JLINK_WriteReg(R3, 0x00000000)  returns 0x00 (0000ms, 0582ms total)
T0A1C 000:860 JLINK_WriteReg(R4, 0x00000000)  returns 0x00 (0000ms, 0582ms total)
T0A1C 000:860 JLINK_WriteReg(R5, 0x00000000)  returns 0x00 (0000ms, 0582ms total)
T0A1C 000:860 JLINK_WriteReg(R6, 0x00000000)  returns 0x00 (0001ms, 0583ms total)
T0A1C 000:861 JLINK_WriteReg(R7, 0x00000000)  returns 0x00 (0000ms, 0583ms total)
T0A1C 000:861 JLINK_WriteReg(R8, 0x00000000)  returns 0x00 (0000ms, 0583ms total)
T0A1C 000:861 JLINK_WriteReg(R9, 0x100001D0)  returns 0x00 (0000ms, 0583ms total)
T0A1C 000:861 JLINK_WriteReg(R10, 0x00000000)  returns 0x00 (0000ms, 0583ms total)
T0A1C 000:861 JLINK_WriteReg(R11, 0x00000000)  returns 0x00 (0000ms, 0583ms total)
T0A1C 000:861 JLINK_WriteReg(R12, 0x00000000)  returns 0x00 (0000ms, 0583ms total)
T0A1C 000:861 JLINK_WriteReg(R13, 0x10000800)  returns 0x00 (0000ms, 0583ms total)
T0A1C 000:861 JLINK_WriteReg(R14, 0x10000001)  returns 0x00 (0000ms, 0583ms total)
T0A1C 000:861 JLINK_WriteReg(R15, 0x1000012E)  returns 0x00 (0000ms, 0583ms total)
T0A1C 000:861 JLINK_WriteReg(XPSR, 0x01000000)  returns 0x00 (0000ms, 0583ms total)
T0A1C 000:861 JLINK_WriteReg(MSP, 0x10000800)  returns 0x00 (0000ms, 0583ms total)
T0A1C 000:861 JLINK_WriteReg(PSP, 0x10000800)  returns 0x00 (0000ms, 0583ms total)
T0A1C 000:861 JLINK_WriteReg(CFBP, 0x00000000)  returns 0x00 (0000ms, 0583ms total)
T0A1C 000:861 JLINK_SetBPEx(Addr = 0x10000000, Type = 0xFFFFFFF2)  returns 0x00000005 (0000ms, 0583ms total)
T0A1C 000:861 JLINK_Go() -- CPU_WriteMem(4 bytes @ 0xE0002008) -- CPU_WriteMem(4 bytes @ 0xE000200C) -- CPU_WriteMem(4 bytes @ 0xE0002010) -- CPU_WriteMem(4 bytes @ 0xE0002014) -- CPU_WriteMem(4 bytes @ 0xE0002018) -- CPU_WriteMem(4 bytes @ 0xE000201C) (0008ms, 0591ms total)
T0A1C 000:869 JLINK_IsHalted()  returns FALSE (0002ms, 0593ms total)
T0A1C 000:921 JLINK_IsHalted()  returns TRUE (0004ms, 0595ms total)
T0A1C 000:925 JLINK_ReadReg(R15)  returns 0x10000000 (0000ms, 0591ms total)
T0A1C 000:925 JLINK_ClrBPEx(BPHandle = 0x00000005)  returns 0x00 (0000ms, 0591ms total)
T0A1C 000:925 JLINK_ReadReg(R0)  returns 0x00000000 (0000ms, 0591ms total)
T0A1C 000:926 JLINK_WriteMem(0x100001F8, 0x0400 Bytes, ...) -- Data:  8C 48 B6 FB F0 F1 00 FB 11 60 8B 49 B0 FB F1 F0 ... -- CPU_WriteMem(1024 bytes @ 0x100001F8)  returns 0x400 (0008ms, 0599ms total)
T0A1C 000:934 JLINK_WriteReg(R0, 0x00000400)  returns 0x00 (0000ms, 0599ms total)
T0A1C 000:934 JLINK_WriteReg(R1, 0x00000400)  returns 0x00 (0000ms, 0599ms total)
T0A1C 000:934 JLINK_WriteReg(R2, 0x100001F8)  returns 0x00 (0000ms, 0599ms total)
T0A1C 000:934 JLINK_WriteReg(R3, 0x00000000)  returns 0x00 (0000ms, 0599ms total)
T0A1C 000:934 JLINK_WriteReg(R4, 0x00000000)  returns 0x00 (0000ms, 0599ms total)
T0A1C 000:934 JLINK_WriteReg(R5, 0x00000000)  returns 0x00 (0000ms, 0599ms total)
T0A1C 000:934 JLINK_WriteReg(R6, 0x00000000)  returns 0x00 (0000ms, 0599ms total)
T0A1C 000:934 JLINK_WriteReg(R7, 0x00000000)  returns 0x00 (0001ms, 0600ms total)
T0A1C 000:935 JLINK_WriteReg(R8, 0x00000000)  returns 0x00 (0000ms, 0600ms total)
T0A1C 000:935 JLINK_WriteReg(R9, 0x100001D0)  returns 0x00 (0000ms, 0600ms total)
T0A1C 000:935 JLINK_WriteReg(R10, 0x00000000)  returns 0x00 (0000ms, 0600ms total)
T0A1C 000:935 JLINK_WriteReg(R11, 0x00000000)  returns 0x00 (0000ms, 0600ms total)
T0A1C 000:935 JLINK_WriteReg(R12, 0x00000000)  returns 0x00 (0000ms, 0600ms total)
T0A1C 000:935 JLINK_WriteReg(R13, 0x10000800)  returns 0x00 (0000ms, 0600ms total)
T0A1C 000:935 JLINK_WriteReg(R14, 0x10000001)  returns 0x00 (0000ms, 0600ms total)
T0A1C 000:935 JLINK_WriteReg(R15, 0x1000012E)  returns 0x00 (0000ms, 0600ms total)
T0A1C 000:935 JLINK_WriteReg(XPSR, 0x01000000)  returns 0x00 (0000ms, 0600ms total)
T0A1C 000:935 JLINK_WriteReg(MSP, 0x10000800)  returns 0x00 (0000ms, 0600ms total)
T0A1C 000:935 JLINK_WriteReg(PSP, 0x10000800)  returns 0x00 (0000ms, 0600ms total)
T0A1C 000:935 JLINK_WriteReg(CFBP, 0x00000000)  returns 0x00 (0000ms, 0600ms total)
T0A1C 000:935 JLINK_SetBPEx(Addr = 0x10000000, Type = 0xFFFFFFF2)  returns 0x00000006 (0001ms, 0601ms total)
T0A1C 000:936 JLINK_Go() -- CPU_WriteMem(4 bytes @ 0xE0002008) -- CPU_WriteMem(4 bytes @ 0xE000200C) -- CPU_WriteMem(4 bytes @ 0xE0002010) -- CPU_WriteMem(4 bytes @ 0xE0002014) -- CPU_WriteMem(4 bytes @ 0xE0002018) -- CPU_WriteMem(4 bytes @ 0xE000201C) (0009ms, 0610ms total)
T0A1C 000:945 JLINK_IsHalted()  returns FALSE (0001ms, 0611ms total)
T0A1C 000:996 JLINK_IsHalted()  returns TRUE (0004ms, 0614ms total)
T0A1C 001:000 JLINK_ReadReg(R15)  returns 0x10000000 (0000ms, 0610ms total)
T0A1C 001:000 JLINK_ClrBPEx(BPHandle = 0x00000006)  returns 0x00 (0000ms, 0610ms total)
T0A1C 001:000 JLINK_ReadReg(R0)  returns 0x00000000 (0000ms, 0610ms total)
T0A1C 001:001 JLINK_WriteMem(0x100001F8, 0x0400 Bytes, ...) -- Data:  4A E7 21 46 CE A0 05 F0 CF F8 18 B9 01 F0 5E F8 ... -- CPU_WriteMem(1024 bytes @ 0x100001F8)  returns 0x400 (0009ms, 0619ms total)
T0A1C 001:010 JLINK_WriteReg(R0, 0x00000800)  returns 0x00 (0000ms, 0619ms total)
T0A1C 001:010 JLINK_WriteReg(R1, 0x00000400)  returns 0x00 (0000ms, 0619ms total)
T0A1C 001:010 JLINK_WriteReg(R2, 0x100001F8)  returns 0x00 (0000ms, 0619ms total)
T0A1C 001:010 JLINK_WriteReg(R3, 0x00000000)  returns 0x00 (0000ms, 0619ms total)
T0A1C 001:010 JLINK_WriteReg(R4, 0x00000000)  returns 0x00 (0000ms, 0619ms total)
T0A1C 001:010 JLINK_WriteReg(R5, 0x00000000)  returns 0x00 (0000ms, 0619ms total)
T0A1C 001:010 JLINK_WriteReg(R6, 0x00000000)  returns 0x00 (0001ms, 0620ms total)
T0A1C 001:011 JLINK_WriteReg(R7, 0x00000000)  returns 0x00 (0000ms, 0620ms total)
T0A1C 001:011 JLINK_WriteReg(R8, 0x00000000)  returns 0x00 (0000ms, 0620ms total)
T0A1C 001:011 JLINK_WriteReg(R9, 0x100001D0)  returns 0x00 (0000ms, 0620ms total)
T0A1C 001:011 JLINK_WriteReg(R10, 0x00000000)  returns 0x00 (0000ms, 0620ms total)
T0A1C 001:011 JLINK_WriteReg(R11, 0x00000000)  returns 0x00 (0000ms, 0620ms total)
T0A1C 001:011 JLINK_WriteReg(R12, 0x00000000)  returns 0x00 (0000ms, 0620ms total)
T0A1C 001:011 JLINK_WriteReg(R13, 0x10000800)  returns 0x00 (0000ms, 0620ms total)
T0A1C 001:011 JLINK_WriteReg(R14, 0x10000001)  returns 0x00 (0000ms, 0620ms total)
T0A1C 001:011 JLINK_WriteReg(R15, 0x1000012E)  returns 0x00 (0000ms, 0620ms total)
T0A1C 001:011 JLINK_WriteReg(XPSR, 0x01000000)  returns 0x00 (0000ms, 0620ms total)
T0A1C 001:011 JLINK_WriteReg(MSP, 0x10000800)  returns 0x00 (0000ms, 0620ms total)
T0A1C 001:011 JLINK_WriteReg(PSP, 0x10000800)  returns 0x00 (0001ms, 0621ms total)
T0A1C 001:012 JLINK_WriteReg(CFBP, 0x00000000)  returns 0x00 (0000ms, 0621ms total)
T0A1C 001:012 JLINK_SetBPEx(Addr = 0x10000000, Type = 0xFFFFFFF2)  returns 0x00000007 (0000ms, 0621ms total)
T0A1C 001:012 JLINK_Go() -- CPU_WriteMem(4 bytes @ 0xE0002008) -- CPU_WriteMem(4 bytes @ 0xE000200C) -- CPU_WriteMem(4 bytes @ 0xE0002010) -- CPU_WriteMem(4 bytes @ 0xE0002014) -- CPU_WriteMem(4 bytes @ 0xE0002018) -- CPU_WriteMem(4 bytes @ 0xE000201C) (0009ms, 0630ms total)
T0A1C 001:022 JLINK_IsHalted()  returns FALSE (0001ms, 0631ms total)
T0A1C 001:073 JLINK_IsHalted()  returns TRUE (0004ms, 0634ms total)
T0A1C 001:077 JLINK_ReadReg(R15)  returns 0x10000000 (0000ms, 0630ms total)
T0A1C 001:077 JLINK_ClrBPEx(BPHandle = 0x00000007)  returns 0x00 (0000ms, 0630ms total)
T0A1C 001:077 JLINK_ReadReg(R0)  returns 0x00000000 (0000ms, 0630ms total)
T0A1C 001:078 JLINK_WriteMem(0x100001F8, 0x0400 Bytes, ...) -- Data:  00 00 00 00 48 4F 4C 44 45 52 44 4F 57 4E 00 00 ... -- CPU_WriteMem(1024 bytes @ 0x100001F8)  returns 0x400 (0008ms, 0638ms total)
T0A1C 001:086 JLINK_WriteReg(R0, 0x00000C00)  returns 0x00 (0000ms, 0638ms total)
T0A1C 001:086 JLINK_WriteReg(R1, 0x00000400)  returns 0x00 (0000ms, 0638ms total)
T0A1C 001:086 JLINK_WriteReg(R2, 0x100001F8)  returns 0x00 (0000ms, 0638ms total)
T0A1C 001:086 JLINK_WriteReg(R3, 0x00000000)  returns 0x00 (0000ms, 0638ms total)
T0A1C 001:086 JLINK_WriteReg(R4, 0x00000000)  returns 0x00 (0000ms, 0638ms total)
T0A1C 001:086 JLINK_WriteReg(R5, 0x00000000)  returns 0x00 (0000ms, 0638ms total)
T0A1C 001:086 JLINK_WriteReg(R6, 0x00000000)  returns 0x00 (0000ms, 0638ms total)
T0A1C 001:087 JLINK_WriteReg(R7, 0x00000000)  returns 0x00 (0000ms, 0639ms total)
T0A1C 001:087 JLINK_WriteReg(R8, 0x00000000)  returns 0x00 (0000ms, 0639ms total)
T0A1C 001:087 JLINK_WriteReg(R9, 0x100001D0)  returns 0x00 (0000ms, 0639ms total)
T0A1C 001:087 JLINK_WriteReg(R10, 0x00000000)  returns 0x00 (0000ms, 0639ms total)
T0A1C 001:087 JLINK_WriteReg(R11, 0x00000000)  returns 0x00 (0000ms, 0639ms total)
T0A1C 001:087 JLINK_WriteReg(R12, 0x00000000)  returns 0x00 (0000ms, 0639ms total)
T0A1C 001:087 JLINK_WriteReg(R13, 0x10000800)  returns 0x00 (0000ms, 0639ms total)
T0A1C 001:087 JLINK_WriteReg(R14, 0x10000001)  returns 0x00 (0000ms, 0639ms total)
T0A1C 001:087 JLINK_WriteReg(R15, 0x1000012E)  returns 0x00 (0000ms, 0639ms total)
T0A1C 001:087 JLINK_WriteReg(XPSR, 0x01000000)  returns 0x00 (0000ms, 0639ms total)
T0A1C 001:087 JLINK_WriteReg(MSP, 0x10000800)  returns 0x00 (0000ms, 0639ms total)
T0A1C 001:087 JLINK_WriteReg(PSP, 0x10000800)  returns 0x00 (0000ms, 0639ms total)
T0A1C 001:087 JLINK_WriteReg(CFBP, 0x00000000)  returns 0x00 (0000ms, 0639ms total)
T0A1C 001:087 JLINK_SetBPEx(Addr = 0x10000000, Type = 0xFFFFFFF2)  returns 0x00000008 (0001ms, 0640ms total)
T0A1C 001:088 JLINK_Go() -- CPU_WriteMem(4 bytes @ 0xE0002008) -- CPU_WriteMem(4 bytes @ 0xE000200C) -- CPU_WriteMem(4 bytes @ 0xE0002010) -- CPU_WriteMem(4 bytes @ 0xE0002014) -- CPU_WriteMem(4 bytes @ 0xE0002018) -- CPU_WriteMem(4 bytes @ 0xE000201C) (0009ms, 0649ms total)
T0A1C 001:097 JLINK_IsHalted()  returns FALSE (0001ms, 0650ms total)
T0A1C 001:148 JLINK_IsHalted()  returns TRUE (0004ms, 0653ms total)
T0A1C 001:152 JLINK_ReadReg(R15)  returns 0x10000000 (0000ms, 0649ms total)
T0A1C 001:152 JLINK_ClrBPEx(BPHandle = 0x00000008)  returns 0x00 (0000ms, 0649ms total)
T0A1C 001:152 JLINK_ReadReg(R0)  returns 0x00000000 (0000ms, 0649ms total)
T0A1C 001:153 JLINK_WriteMem(0x100001F8, 0x0400 Bytes, ...) -- Data:  69 49 48 70 02 E0 01 20 03 F0 DC F9 66 48 40 78 ... -- CPU_WriteMem(1024 bytes @ 0x100001F8)  returns 0x400 (0008ms, 0657ms total)
T0A1C 001:161 JLINK_WriteReg(R0, 0x00001000)  returns 0x00 (0000ms, 0657ms total)
T0A1C 001:161 JLINK_WriteReg(R1, 0x00000400)  returns 0x00 (0000ms, 0657ms total)
T0A1C 001:161 JLINK_WriteReg(R2, 0x100001F8)  returns 0x00 (0000ms, 0657ms total)
T0A1C 001:161 JLINK_WriteReg(R3, 0x00000000)  returns 0x00 (0000ms, 0657ms total)
T0A1C 001:161 JLINK_WriteReg(R4, 0x00000000)  returns 0x00 (0000ms, 0657ms total)
T0A1C 001:161 JLINK_WriteReg(R5, 0x00000000)  returns 0x00 (0000ms, 0657ms total)
T0A1C 001:161 JLINK_WriteReg(R6, 0x00000000)  returns 0x00 (0000ms, 0657ms total)
T0A1C 001:161 JLINK_WriteReg(R7, 0x00000000)  returns 0x00 (0000ms, 0657ms total)
T0A1C 001:161 JLINK_WriteReg(R8, 0x00000000)  returns 0x00 (0000ms, 0657ms total)
T0A1C 001:161 JLINK_WriteReg(R9, 0x100001D0)  returns 0x00 (0000ms, 0657ms total)
T0A1C 001:161 JLINK_WriteReg(R10, 0x00000000)  returns 0x00 (0000ms, 0657ms total)
T0A1C 001:161 JLINK_WriteReg(R11, 0x00000000)  returns 0x00 (0000ms, 0657ms total)
T0A1C 001:161 JLINK_WriteReg(R12, 0x00000000)  returns 0x00 (0000ms, 0657ms total)
T0A1C 001:161 JLINK_WriteReg(R13, 0x10000800)  returns 0x00 (0000ms, 0657ms total)
T0A1C 001:161 JLINK_WriteReg(R14, 0x10000001)  returns 0x00 (0000ms, 0657ms total)
T0A1C 001:161 JLINK_WriteReg(R15, 0x1000012E)  returns 0x00 (0000ms, 0657ms total)
T0A1C 001:161 JLINK_WriteReg(XPSR, 0x01000000)  returns 0x00 (0000ms, 0657ms total)
T0A1C 001:161 JLINK_WriteReg(MSP, 0x10000800)  returns 0x00 (0000ms, 0657ms total)
T0A1C 001:162 JLINK_WriteReg(PSP, 0x10000800)  returns 0x00 (0000ms, 0657ms total)
T0A1C 001:162 JLINK_WriteReg(CFBP, 0x00000000)  returns 0x00 (0000ms, 0657ms total)
T0A1C 001:162 JLINK_SetBPEx(Addr = 0x10000000, Type = 0xFFFFFFF2)  returns 0x00000009 (0000ms, 0657ms total)
T0A1C 001:162 JLINK_Go() -- CPU_WriteMem(4 bytes @ 0xE0002008) -- CPU_WriteMem(4 bytes @ 0xE000200C) -- CPU_WriteMem(4 bytes @ 0xE0002010) -- CPU_WriteMem(4 bytes @ 0xE0002014) -- CPU_WriteMem(4 bytes @ 0xE0002018) -- CPU_WriteMem(4 bytes @ 0xE000201C) (0009ms, 0666ms total)
T0A1C 001:171 JLINK_IsHalted()  returns FALSE (0001ms, 0667ms total)
T0A1C 001:222 JLINK_IsHalted()  returns TRUE (0004ms, 0670ms total)
T0A1C 001:226 JLINK_ReadReg(R15)  returns 0x10000000 (0000ms, 0666ms total)
T0A1C 001:226 JLINK_ClrBPEx(BPHandle = 0x00000009)  returns 0x00 (0000ms, 0666ms total)
T0A1C 001:226 JLINK_ReadReg(R0)  returns 0x00000000 (0000ms, 0666ms total)
T0A1C 001:227 JLINK_WriteMem(0x100001F8, 0x0400 Bytes, ...) -- Data:  02 F0 31 F8 14 E0 6B 48 40 6B C0 F3 00 20 30 B9 ... -- CPU_WriteMem(1024 bytes @ 0x100001F8)  returns 0x400 (0008ms, 0674ms total)
T0A1C 001:235 JLINK_WriteReg(R0, 0x00001400)  returns 0x00 (0000ms, 0674ms total)
T0A1C 001:235 JLINK_WriteReg(R1, 0x00000400)  returns 0x00 (0000ms, 0674ms total)
T0A1C 001:235 JLINK_WriteReg(R2, 0x100001F8)  returns 0x00 (0000ms, 0674ms total)
T0A1C 001:235 JLINK_WriteReg(R3, 0x00000000)  returns 0x00 (0000ms, 0674ms total)
T0A1C 001:235 JLINK_WriteReg(R4, 0x00000000)  returns 0x00 (0000ms, 0674ms total)
T0A1C 001:235 JLINK_WriteReg(R5, 0x00000000)  returns 0x00 (0000ms, 0674ms total)
T0A1C 001:235 JLINK_WriteReg(R6, 0x00000000)  returns 0x00 (0000ms, 0674ms total)
T0A1C 001:235 JLINK_WriteReg(R7, 0x00000000)  returns 0x00 (0001ms, 0675ms total)
T0A1C 001:236 JLINK_WriteReg(R8, 0x00000000)  returns 0x00 (0000ms, 0675ms total)
T0A1C 001:236 JLINK_WriteReg(R9, 0x100001D0)  returns 0x00 (0000ms, 0675ms total)
T0A1C 001:236 JLINK_WriteReg(R10, 0x00000000)  returns 0x00 (0000ms, 0675ms total)
T0A1C 001:236 JLINK_WriteReg(R11, 0x00000000)  returns 0x00 (0000ms, 0675ms total)
T0A1C 001:236 JLINK_WriteReg(R12, 0x00000000)  returns 0x00 (0000ms, 0675ms total)
T0A1C 001:236 JLINK_WriteReg(R13, 0x10000800)  returns 0x00 (0000ms, 0675ms total)
T0A1C 001:236 JLINK_WriteReg(R14, 0x10000001)  returns 0x00 (0000ms, 0675ms total)
T0A1C 001:236 JLINK_WriteReg(R15, 0x1000012E)  returns 0x00 (0000ms, 0675ms total)
T0A1C 001:236 JLINK_WriteReg(XPSR, 0x01000000)  returns 0x00 (0000ms, 0675ms total)
T0A1C 001:236 JLINK_WriteReg(MSP, 0x10000800)  returns 0x00 (0000ms, 0675ms total)
T0A1C 001:236 JLINK_WriteReg(PSP, 0x10000800)  returns 0x00 (0001ms, 0676ms total)
T0A1C 001:237 JLINK_WriteReg(CFBP, 0x00000000)  returns 0x00 (0000ms, 0676ms total)
T0A1C 001:237 JLINK_SetBPEx(Addr = 0x10000000, Type = 0xFFFFFFF2)  returns 0x0000000A (0000ms, 0676ms total)
T0A1C 001:237 JLINK_Go() -- CPU_WriteMem(4 bytes @ 0xE0002008) -- CPU_WriteMem(4 bytes @ 0xE000200C) -- CPU_WriteMem(4 bytes @ 0xE0002010) -- CPU_WriteMem(4 bytes @ 0xE0002014) -- CPU_WriteMem(4 bytes @ 0xE0002018) -- CPU_WriteMem(4 bytes @ 0xE000201C) (0009ms, 0685ms total)
T0A1C 001:246 JLINK_IsHalted()  returns FALSE (0001ms, 0686ms total)
T0A1C 001:297 JLINK_IsHalted()  returns TRUE (0004ms, 0689ms total)
T0A1C 001:301 JLINK_ReadReg(R15)  returns 0x10000000 (0000ms, 0685ms total)
T0A1C 001:301 JLINK_ClrBPEx(BPHandle = 0x0000000A)  returns 0x00 (0000ms, 0685ms total)
T0A1C 001:301 JLINK_ReadReg(R0)  returns 0x00000000 (0000ms, 0685ms total)
T0A1C 001:301 JLINK_WriteMem(0x100001F8, 0x0400 Bytes, ...) -- Data:  FE F7 C6 FD 10 BD 10 B5 F3 48 00 78 01 28 16 D1 ... -- CPU_WriteMem(1024 bytes @ 0x100001F8)  returns 0x400 (0008ms, 0693ms total)
T0A1C 001:309 JLINK_WriteReg(R0, 0x00001800)  returns 0x00 (0000ms, 0693ms total)
T0A1C 001:309 JLINK_WriteReg(R1, 0x00000400)  returns 0x00 (0000ms, 0693ms total)
T0A1C 001:309 JLINK_WriteReg(R2, 0x100001F8)  returns 0x00 (0000ms, 0693ms total)
T0A1C 001:309 JLINK_WriteReg(R3, 0x00000000)  returns 0x00 (0000ms, 0693ms total)
T0A1C 001:309 JLINK_WriteReg(R4, 0x00000000)  returns 0x00 (0000ms, 0693ms total)
T0A1C 001:309 JLINK_WriteReg(R5, 0x00000000)  returns 0x00 (0000ms, 0693ms total)
T0A1C 001:309 JLINK_WriteReg(R6, 0x00000000)  returns 0x00 (0000ms, 0693ms total)
T0A1C 001:309 JLINK_WriteReg(R7, 0x00000000)  returns 0x00 (0000ms, 0693ms total)
T0A1C 001:309 JLINK_WriteReg(R8, 0x00000000)  returns 0x00 (0000ms, 0693ms total)
T0A1C 001:309 JLINK_WriteReg(R9, 0x100001D0)  returns 0x00 (0000ms, 0693ms total)
T0A1C 001:309 JLINK_WriteReg(R10, 0x00000000)  returns 0x00 (0000ms, 0693ms total)
T0A1C 001:309 JLINK_WriteReg(R11, 0x00000000)  returns 0x00 (0000ms, 0693ms total)
T0A1C 001:309 JLINK_WriteReg(R12, 0x00000000)  returns 0x00 (0000ms, 0693ms total)
T0A1C 001:309 JLINK_WriteReg(R13, 0x10000800)  returns 0x00 (0000ms, 0693ms total)
T0A1C 001:309 JLINK_WriteReg(R14, 0x10000001)  returns 0x00 (0000ms, 0693ms total)
T0A1C 001:309 JLINK_WriteReg(R15, 0x1000012E)  returns 0x00 (0000ms, 0693ms total)
T0A1C 001:309 JLINK_WriteReg(XPSR, 0x01000000)  returns 0x00 (0000ms, 0693ms total)
T0A1C 001:309 JLINK_WriteReg(MSP, 0x10000800)  returns 0x00 (0000ms, 0693ms total)
T0A1C 001:309 JLINK_WriteReg(PSP, 0x10000800)  returns 0x00 (0000ms, 0693ms total)
T0A1C 001:309 JLINK_WriteReg(CFBP, 0x00000000)  returns 0x00 (0000ms, 0693ms total)
T0A1C 001:309 JLINK_SetBPEx(Addr = 0x10000000, Type = 0xFFFFFFF2)  returns 0x0000000B (0000ms, 0693ms total)
T0A1C 001:309 JLINK_Go() -- CPU_WriteMem(4 bytes @ 0xE0002008) -- CPU_WriteMem(4 bytes @ 0xE000200C) -- CPU_WriteMem(4 bytes @ 0xE0002010) -- CPU_WriteMem(4 bytes @ 0xE0002014) -- CPU_WriteMem(4 bytes @ 0xE0002018) -- CPU_WriteMem(4 bytes @ 0xE000201C) (0009ms, 0702ms total)
T0A1C 001:318 JLINK_IsHalted()  returns FALSE (0001ms, 0703ms total)
T0A1C 001:369 JLINK_IsHalted()  returns TRUE (0004ms, 0706ms total)
T0A1C 001:373 JLINK_ReadReg(R15)  returns 0x10000000 (0000ms, 0702ms total)
T0A1C 001:373 JLINK_ClrBPEx(BPHandle = 0x0000000B)  returns 0x00 (0000ms, 0702ms total)
T0A1C 001:373 JLINK_ReadReg(R0)  returns 0x00000000 (0000ms, 0702ms total)
T0A1C 001:374 JLINK_WriteMem(0x100001F8, 0x0400 Bytes, ...) -- Data:  00 00 00 00 18 00 00 10 48 6F 6C 64 65 72 20 64 ... -- CPU_WriteMem(1024 bytes @ 0x100001F8)  returns 0x400 (0008ms, 0710ms total)
T0A1C 001:382 JLINK_WriteReg(R0, 0x00001C00)  returns 0x00 (0000ms, 0710ms total)
T0A1C 001:382 JLINK_WriteReg(R1, 0x00000400)  returns 0x00 (0000ms, 0710ms total)
T0A1C 001:382 JLINK_WriteReg(R2, 0x100001F8)  returns 0x00 (0000ms, 0710ms total)
T0A1C 001:382 JLINK_WriteReg(R3, 0x00000000)  returns 0x00 (0000ms, 0710ms total)
T0A1C 001:382 JLINK_WriteReg(R4, 0x00000000)  returns 0x00 (0000ms, 0710ms total)
T0A1C 001:382 JLINK_WriteReg(R5, 0x00000000)  returns 0x00 (0000ms, 0710ms total)
T0A1C 001:382 JLINK_WriteReg(R6, 0x00000000)  returns 0x00 (0000ms, 0710ms total)
T0A1C 001:382 JLINK_WriteReg(R7, 0x00000000)  returns 0x00 (0000ms, 0710ms total)
T0A1C 001:382 JLINK_WriteReg(R8, 0x00000000)  returns 0x00 (0000ms, 0710ms total)
T0A1C 001:382 JLINK_WriteReg(R9, 0x100001D0)  returns 0x00 (0000ms, 0710ms total)
T0A1C 001:382 JLINK_WriteReg(R10, 0x00000000)  returns 0x00 (0000ms, 0710ms total)
T0A1C 001:382 JLINK_WriteReg(R11, 0x00000000)  returns 0x00 (0000ms, 0710ms total)
T0A1C 001:382 JLINK_WriteReg(R12, 0x00000000)  returns 0x00 (0000ms, 0710ms total)
T0A1C 001:382 JLINK_WriteReg(R13, 0x10000800)  returns 0x00 (0000ms, 0710ms total)
T0A1C 001:382 JLINK_WriteReg(R14, 0x10000001)  returns 0x00 (0000ms, 0710ms total)
T0A1C 001:382 JLINK_WriteReg(R15, 0x1000012E)  returns 0x00 (0000ms, 0710ms total)
T0A1C 001:382 JLINK_WriteReg(XPSR, 0x01000000)  returns 0x00 (0000ms, 0710ms total)
T0A1C 001:382 JLINK_WriteReg(MSP, 0x10000800)  returns 0x00 (0000ms, 0710ms total)
T0A1C 001:382 JLINK_WriteReg(PSP, 0x10000800)  returns 0x00 (0000ms, 0710ms total)
T0A1C 001:382 JLINK_WriteReg(CFBP, 0x00000000)  returns 0x00 (0000ms, 0710ms total)
T0A1C 001:383 JLINK_SetBPEx(Addr = 0x10000000, Type = 0xFFFFFFF2)  returns 0x0000000C (0000ms, 0711ms total)
T0A1C 001:383 JLINK_Go() -- CPU_WriteMem(4 bytes @ 0xE0002008) -- CPU_WriteMem(4 bytes @ 0xE000200C) -- CPU_WriteMem(4 bytes @ 0xE0002010) -- CPU_WriteMem(4 bytes @ 0xE0002014) -- CPU_WriteMem(4 bytes @ 0xE0002018) -- CPU_WriteMem(4 bytes @ 0xE000201C) (0009ms, 0720ms total)
T0A1C 001:392 JLINK_IsHalted()  returns FALSE (0001ms, 0721ms total)
T0A1C 001:443 JLINK_IsHalted()  returns TRUE (0004ms, 0724ms total)
T0A1C 001:447 JLINK_ReadReg(R15)  returns 0x10000000 (0000ms, 0720ms total)
T0A1C 001:447 JLINK_ClrBPEx(BPHandle = 0x0000000C)  returns 0x00 (0000ms, 0720ms total)
T0A1C 001:447 JLINK_ReadReg(R0)  returns 0x00000000 (0000ms, 0720ms total)
T0A1C 001:448 JLINK_WriteMem(0x100001F8, 0x0400 Bytes, ...) -- Data:  48 4F 4C 44 45 52 55 50 20 20 20 20 20 20 20 20 ... -- CPU_WriteMem(1024 bytes @ 0x100001F8)  returns 0x400 (0007ms, 0727ms total)
T0A1C 001:455 JLINK_WriteReg(R0, 0x00002000)  returns 0x00 (0001ms, 0728ms total)
T0A1C 001:456 JLINK_WriteReg(R1, 0x00000400)  returns 0x00 (0000ms, 0728ms total)
T0A1C 001:456 JLINK_WriteReg(R2, 0x100001F8)  returns 0x00 (0000ms, 0728ms total)
T0A1C 001:456 JLINK_WriteReg(R3, 0x00000000)  returns 0x00 (0000ms, 0728ms total)
T0A1C 001:456 JLINK_WriteReg(R4, 0x00000000)  returns 0x00 (0000ms, 0728ms total)
T0A1C 001:456 JLINK_WriteReg(R5, 0x00000000)  returns 0x00 (0000ms, 0728ms total)
T0A1C 001:456 JLINK_WriteReg(R6, 0x00000000)  returns 0x00 (0000ms, 0728ms total)
T0A1C 001:456 JLINK_WriteReg(R7, 0x00000000)  returns 0x00 (0000ms, 0728ms total)
T0A1C 001:456 JLINK_WriteReg(R8, 0x00000000)  returns 0x00 (0000ms, 0728ms total)
T0A1C 001:456 JLINK_WriteReg(R9, 0x100001D0)  returns 0x00 (0000ms, 0728ms total)
T0A1C 001:456 JLINK_WriteReg(R10, 0x00000000)  returns 0x00 (0000ms, 0728ms total)
T0A1C 001:456 JLINK_WriteReg(R11, 0x00000000)  returns 0x00 (0000ms, 0728ms total)
T0A1C 001:456 JLINK_WriteReg(R12, 0x00000000)  returns 0x00 (0000ms, 0728ms total)
T0A1C 001:456 JLINK_WriteReg(R13, 0x10000800)  returns 0x00 (0000ms, 0728ms total)
T0A1C 001:456 JLINK_WriteReg(R14, 0x10000001)  returns 0x00 (0000ms, 0728ms total)
T0A1C 001:456 JLINK_WriteReg(R15, 0x1000012E)  returns 0x00 (0000ms, 0728ms total)
T0A1C 001:456 JLINK_WriteReg(XPSR, 0x01000000)  returns 0x00 (0000ms, 0728ms total)
T0A1C 001:456 JLINK_WriteReg(MSP, 0x10000800)  returns 0x00 (0000ms, 0728ms total)
T0A1C 001:456 JLINK_WriteReg(PSP, 0x10000800)  returns 0x00 (0000ms, 0728ms total)
T0A1C 001:456 JLINK_WriteReg(CFBP, 0x00000000)  returns 0x00 (0000ms, 0728ms total)
T0A1C 001:456 JLINK_SetBPEx(Addr = 0x10000000, Type = 0xFFFFFFF2)  returns 0x0000000D (0000ms, 0728ms total)
T0A1C 001:456 JLINK_Go() -- CPU_WriteMem(4 bytes @ 0xE0002008) -- CPU_WriteMem(4 bytes @ 0xE000200C) -- CPU_WriteMem(4 bytes @ 0xE0002010) -- CPU_WriteMem(4 bytes @ 0xE0002014) -- CPU_WriteMem(4 bytes @ 0xE0002018) -- CPU_WriteMem(4 bytes @ 0xE000201C) (0010ms, 0738ms total)
T0A1C 001:466 JLINK_IsHalted()  returns FALSE (0001ms, 0739ms total)
T0A1C 001:517 JLINK_IsHalted()  returns TRUE (0004ms, 0742ms total)
T0A1C 001:521 JLINK_ReadReg(R15)  returns 0x10000000 (0000ms, 0738ms total)
T0A1C 001:521 JLINK_ClrBPEx(BPHandle = 0x0000000D)  returns 0x00 (0000ms, 0738ms total)
T0A1C 001:521 JLINK_ReadReg(R0)  returns 0x00000000 (0000ms, 0738ms total)
T0A1C 001:522 JLINK_WriteMem(0x100001F8, 0x0400 Bytes, ...) -- Data:  EE D1 98 F8 0E 00 2E 28 EA D1 4F F0 05 09 97 E0 ... -- CPU_WriteMem(1024 bytes @ 0x100001F8)  returns 0x400 (0007ms, 0745ms total)
T0A1C 001:529 JLINK_WriteReg(R0, 0x00002400)  returns 0x00 (0000ms, 0745ms total)
T0A1C 001:529 JLINK_WriteReg(R1, 0x00000400)  returns 0x00 (0000ms, 0745ms total)
T0A1C 001:529 JLINK_WriteReg(R2, 0x100001F8)  returns 0x00 (0000ms, 0745ms total)
T0A1C 001:529 JLINK_WriteReg(R3, 0x00000000)  returns 0x00 (0000ms, 0745ms total)
T0A1C 001:529 JLINK_WriteReg(R4, 0x00000000)  returns 0x00 (0000ms, 0745ms total)
T0A1C 001:529 JLINK_WriteReg(R5, 0x00000000)  returns 0x00 (0000ms, 0745ms total)
T0A1C 001:529 JLINK_WriteReg(R6, 0x00000000)  returns 0x00 (0001ms, 0746ms total)
T0A1C 001:530 JLINK_WriteReg(R7, 0x00000000)  returns 0x00 (0000ms, 0746ms total)
T0A1C 001:530 JLINK_WriteReg(R8, 0x00000000)  returns 0x00 (0000ms, 0746ms total)
T0A1C 001:530 JLINK_WriteReg(R9, 0x100001D0)  returns 0x00 (0000ms, 0746ms total)
T0A1C 001:530 JLINK_WriteReg(R10, 0x00000000)  returns 0x00 (0000ms, 0746ms total)
T0A1C 001:530 JLINK_WriteReg(R11, 0x00000000)  returns 0x00 (0000ms, 0746ms total)
T0A1C 001:530 JLINK_WriteReg(R12, 0x00000000)  returns 0x00 (0000ms, 0746ms total)
T0A1C 001:530 JLINK_WriteReg(R13, 0x10000800)  returns 0x00 (0000ms, 0746ms total)
T0A1C 001:530 JLINK_WriteReg(R14, 0x10000001)  returns 0x00 (0000ms, 0746ms total)
T0A1C 001:530 JLINK_WriteReg(R15, 0x1000012E)  returns 0x00 (0000ms, 0746ms total)
T0A1C 001:530 JLINK_WriteReg(XPSR, 0x01000000)  returns 0x00 (0000ms, 0746ms total)
T0A1C 001:530 JLINK_WriteReg(MSP, 0x10000800)  returns 0x00 (0000ms, 0746ms total)
T0A1C 001:530 JLINK_WriteReg(PSP, 0x10000800)  returns 0x00 (0000ms, 0746ms total)
T0A1C 001:530 JLINK_WriteReg(CFBP, 0x00000000)  returns 0x00 (0000ms, 0746ms total)
T0A1C 001:530 JLINK_SetBPEx(Addr = 0x10000000, Type = 0xFFFFFFF2)  returns 0x0000000E (0000ms, 0746ms total)
T0A1C 001:530 JLINK_Go() -- CPU_WriteMem(4 bytes @ 0xE0002008) -- CPU_WriteMem(4 bytes @ 0xE000200C) -- CPU_WriteMem(4 bytes @ 0xE0002010) -- CPU_WriteMem(4 bytes @ 0xE0002014) -- CPU_WriteMem(4 bytes @ 0xE0002018) -- CPU_WriteMem(4 bytes @ 0xE000201C) (0009ms, 0755ms total)
T0A1C 001:539 JLINK_IsHalted()  returns FALSE (0001ms, 0756ms total)
T0A1C 001:590 JLINK_IsHalted()  returns TRUE (0004ms, 0759ms total)
T0A1C 001:594 JLINK_ReadReg(R15)  returns 0x10000000 (0000ms, 0755ms total)
T0A1C 001:594 JLINK_ClrBPEx(BPHandle = 0x0000000E)  returns 0x00 (0000ms, 0755ms total)
T0A1C 001:594 JLINK_ReadReg(R0)  returns 0x00000000 (0000ms, 0755ms total)
T0A1C 001:594 JLINK_WriteMem(0x100001F8, 0x0400 Bytes, ...) -- Data:  00 BF 59 48 40 69 C0 F3 40 10 00 28 F9 D0 56 48 ... -- CPU_WriteMem(1024 bytes @ 0x100001F8)  returns 0x400 (0008ms, 0763ms total)
T0A1C 001:602 JLINK_WriteReg(R0, 0x00002800)  returns 0x00 (0000ms, 0763ms total)
T0A1C 001:602 JLINK_WriteReg(R1, 0x00000400)  returns 0x00 (0000ms, 0763ms total)
T0A1C 001:602 JLINK_WriteReg(R2, 0x100001F8)  returns 0x00 (0000ms, 0763ms total)
T0A1C 001:602 JLINK_WriteReg(R3, 0x00000000)  returns 0x00 (0000ms, 0763ms total)
T0A1C 001:602 JLINK_WriteReg(R4, 0x00000000)  returns 0x00 (0000ms, 0763ms total)
T0A1C 001:602 JLINK_WriteReg(R5, 0x00000000)  returns 0x00 (0000ms, 0763ms total)
T0A1C 001:602 JLINK_WriteReg(R6, 0x00000000)  returns 0x00 (0000ms, 0763ms total)
T0A1C 001:602 JLINK_WriteReg(R7, 0x00000000)  returns 0x00 (0000ms, 0763ms total)
T0A1C 001:602 JLINK_WriteReg(R8, 0x00000000)  returns 0x00 (0000ms, 0763ms total)
T0A1C 001:602 JLINK_WriteReg(R9, 0x100001D0)  returns 0x00 (0000ms, 0763ms total)
T0A1C 001:602 JLINK_WriteReg(R10, 0x00000000)  returns 0x00 (0000ms, 0763ms total)
T0A1C 001:602 JLINK_WriteReg(R11, 0x00000000)  returns 0x00 (0000ms, 0763ms total)
T0A1C 001:602 JLINK_WriteReg(R12, 0x00000000)  returns 0x00 (0000ms, 0763ms total)
T0A1C 001:602 JLINK_WriteReg(R13, 0x10000800)  returns 0x00 (0000ms, 0763ms total)
T0A1C 001:602 JLINK_WriteReg(R14, 0x10000001)  returns 0x00 (0000ms, 0763ms total)
T0A1C 001:602 JLINK_WriteReg(R15, 0x1000012E)  returns 0x00 (0000ms, 0763ms total)
T0A1C 001:602 JLINK_WriteReg(XPSR, 0x01000000)  returns 0x00 (0000ms, 0763ms total)
T0A1C 001:602 JLINK_WriteReg(MSP, 0x10000800)  returns 0x00 (0000ms, 0763ms total)
T0A1C 001:602 JLINK_WriteReg(PSP, 0x10000800)  returns 0x00 (0000ms, 0763ms total)
T0A1C 001:602 JLINK_WriteReg(CFBP, 0x00000000)  returns 0x00 (0000ms, 0763ms total)
T0A1C 001:602 JLINK_SetBPEx(Addr = 0x10000000, Type = 0xFFFFFFF2)  returns 0x0000000F (0000ms, 0763ms total)
T0A1C 001:602 JLINK_Go() -- CPU_WriteMem(4 bytes @ 0xE0002008) -- CPU_WriteMem(4 bytes @ 0xE000200C) -- CPU_WriteMem(4 bytes @ 0xE0002010) -- CPU_WriteMem(4 bytes @ 0xE0002014) -- CPU_WriteMem(4 bytes @ 0xE0002018) -- CPU_WriteMem(4 bytes @ 0xE000201C) (0009ms, 0772ms total)
T0A1C 001:611 JLINK_IsHalted()  returns FALSE (0001ms, 0773ms total)
T0A1C 001:662 JLINK_IsHalted()  returns TRUE (0004ms, 0776ms total)
T0A1C 001:666 JLINK_ReadReg(R15)  returns 0x10000000 (0000ms, 0772ms total)
T0A1C 001:666 JLINK_ClrBPEx(BPHandle = 0x0000000F)  returns 0x00 (0000ms, 0772ms total)
T0A1C 001:666 JLINK_ReadReg(R0)  returns 0x00000000 (0000ms, 0772ms total)
T0A1C 001:666 JLINK_WriteMem(0x100001F8, 0x0400 Bytes, ...) -- Data:  20 F0 80 50 48 61 64 20 00 BF 01 00 A0 F1 01 00 ... -- CPU_WriteMem(1024 bytes @ 0x100001F8)  returns 0x400 (0008ms, 0780ms total)
T0A1C 001:674 JLINK_WriteReg(R0, 0x00002C00)  returns 0x00 (0000ms, 0780ms total)
T0A1C 001:674 JLINK_WriteReg(R1, 0x00000400)  returns 0x00 (0000ms, 0780ms total)
T0A1C 001:674 JLINK_WriteReg(R2, 0x100001F8)  returns 0x00 (0000ms, 0780ms total)
T0A1C 001:674 JLINK_WriteReg(R3, 0x00000000)  returns 0x00 (0000ms, 0780ms total)
T0A1C 001:674 JLINK_WriteReg(R4, 0x00000000)  returns 0x00 (0000ms, 0780ms total)
T0A1C 001:674 JLINK_WriteReg(R5, 0x00000000)  returns 0x00 (0000ms, 0780ms total)
T0A1C 001:674 JLINK_WriteReg(R6, 0x00000000)  returns 0x00 (0000ms, 0780ms total)
T0A1C 001:674 JLINK_WriteReg(R7, 0x00000000)  returns 0x00 (0000ms, 0780ms total)
T0A1C 001:674 JLINK_WriteReg(R8, 0x00000000)  returns 0x00 (0000ms, 0780ms total)
T0A1C 001:674 JLINK_WriteReg(R9, 0x100001D0)  returns 0x00 (0000ms, 0780ms total)
T0A1C 001:674 JLINK_WriteReg(R10, 0x00000000)  returns 0x00 (0000ms, 0780ms total)
T0A1C 001:674 JLINK_WriteReg(R11, 0x00000000)  returns 0x00 (0000ms, 0780ms total)
T0A1C 001:674 JLINK_WriteReg(R12, 0x00000000)  returns 0x00 (0000ms, 0780ms total)
T0A1C 001:674 JLINK_WriteReg(R13, 0x10000800)  returns 0x00 (0000ms, 0780ms total)
T0A1C 001:674 JLINK_WriteReg(R14, 0x10000001)  returns 0x00 (0000ms, 0780ms total)
T0A1C 001:674 JLINK_WriteReg(R15, 0x1000012E)  returns 0x00 (0000ms, 0780ms total)
T0A1C 001:674 JLINK_WriteReg(XPSR, 0x01000000)  returns 0x00 (0000ms, 0780ms total)
T0A1C 001:674 JLINK_WriteReg(MSP, 0x10000800)  returns 0x00 (0000ms, 0780ms total)
T0A1C 001:674 JLINK_WriteReg(PSP, 0x10000800)  returns 0x00 (0000ms, 0780ms total)
T0A1C 001:674 JLINK_WriteReg(CFBP, 0x00000000)  returns 0x00 (0000ms, 0780ms total)
T0A1C 001:674 JLINK_SetBPEx(Addr = 0x10000000, Type = 0xFFFFFFF2)  returns 0x00000010 (0000ms, 0780ms total)
T0A1C 001:674 JLINK_Go() -- CPU_WriteMem(4 bytes @ 0xE0002008) -- CPU_WriteMem(4 bytes @ 0xE000200C) -- CPU_WriteMem(4 bytes @ 0xE0002010) -- CPU_WriteMem(4 bytes @ 0xE0002014) -- CPU_WriteMem(4 bytes @ 0xE0002018) -- CPU_WriteMem(4 bytes @ 0xE000201C) (0009ms, 0789ms total)
T0A1C 001:683 JLINK_IsHalted()  returns FALSE (0001ms, 0790ms total)
T0A1C 001:734 JLINK_IsHalted()  returns TRUE (0004ms, 0793ms total)
T0A1C 001:738 JLINK_ReadReg(R15)  returns 0x10000000 (0000ms, 0789ms total)
T0A1C 001:738 JLINK_ClrBPEx(BPHandle = 0x00000010)  returns 0x00 (0000ms, 0789ms total)
T0A1C 001:738 JLINK_ReadReg(R0)  returns 0x00000000 (0000ms, 0789ms total)
T0A1C 001:739 JLINK_WriteMem(0x100001F8, 0x0400 Bytes, ...) -- Data:  D1 49 C9 79 12 02 02 EA 01 41 08 43 CE 49 09 7A ... -- CPU_WriteMem(1024 bytes @ 0x100001F8)  returns 0x400 (0007ms, 0796ms total)
T0A1C 001:746 JLINK_WriteReg(R0, 0x00003000)  returns 0x00 (0000ms, 0796ms total)
T0A1C 001:746 JLINK_WriteReg(R1, 0x00000400)  returns 0x00 (0000ms, 0796ms total)
